
TB9A0 000:339 SEGGER J-Link V4.90e Log File (0000ms, 0316ms total)
TB9A0 000:339 DLL Compiled: Sep  8 2014 18:46:31 (0000ms, 0316ms total)
TB9A0 000:339 Logging started @ 2017-05-05 20:14 (0000ms, 0316ms total)
TB9A0 000:339 JLINK_SetWarnOutHandler(...) (0000ms, 0316ms total)
TB9A0 000:339 JLINK_OpenEx(...)
Firmware: J-Link V9 compiled Sep 18 2015 19:53:12
Hardware: V9.30
S/N: 59300005
Feature(s): GDB, RDI, FlashBP, FlashDL, JFlash  returns O.K. (0302ms, 0618ms total)
TB9A0 000:641 JLINK_SetErrorOutHandler(...) (0000ms, 0618ms total)
TB9A0 000:641 JLINK_ExecCommand("ProjectFile = "C:\Users\admin\Desktop\分路计量直流表\DcMeter_Mini58\JLinkSettings.ini"", ...)Device "UNSPECIFIED" selected (0 KB flash, 0 KB RAM).  returns 0x00 (0000ms, 0618ms total)
TB9A0 000:641 JLINK_ExecCommand("Device = Mini58ZDE", ...)Device "UNSPECIFIED" selected (0 KB flash, 0 KB RAM).  returns 0x00 (0000ms, 0618ms total)
TB9A0 000:641 JLINK_ExecCommand("DisableConnectionTimeout", ...)  returns 0x01 (0000ms, 0618ms total)
TB9A0 000:641 JLINK_GetHardwareVersion()  returns 0x16B48 (0000ms, 0618ms total)
TB9A0 000:641 JLINK_GetDLLVersion()  returns 49005 (0000ms, 0618ms total)
TB9A0 000:641 JLINK_GetFirmwareString(...) (0000ms, 0618ms total)
TB9A0 000:642 JLINK_GetDLLVersion()  returns 49005 (0000ms, 0618ms total)
TB9A0 000:642 JLINK_GetCompileDateTime() (0000ms, 0618ms total)
TB9A0 000:642 JLINK_GetFirmwareString(...) (0000ms, 0618ms total)
TB9A0 000:642 JLINK_GetHardwareVersion()  returns 0x16B48 (0000ms, 0618ms total)
TB9A0 000:643 JLINK_TIF_Select(JLINKARM_TIF_SWD)  returns 0x00 (0010ms, 0628ms total)
TB9A0 000:653 JLINK_SetSpeed(500) (0002ms, 0630ms total)
TB9A0 000:655 JLINK_GetId() >0x108 TIF>Found SWD-DP with ID 0x0BB11477 >0x0D TIF> >0x21 TIF> >0x0D TIF> >0x28 TIF> >0x0D TIF> >0x28 TIF> >0x0D TIF> >0x21 TIF> >0x0D TIF> >0x28 TIF> >0x0D TIF> >0x21 TIF> >0x0D TIF> >0x21 TIF> >0x0D TIF> >0x21 TIF> >0x0D TIF> >0x21 TIF> >0x0D TIF> >0x28 TIF> >0x0D TIF> >0x28 TIF> >0x0D TIF> >0x21 TIF> >0x0D TIF> >0x28 TIF> >0x0D TIF> >0x28 TIF> >0x0D TIF> >0x28 TIF> >0x0D TIF> >0x21 TIF> >0x0D TIF> >0x21 TIF> >0x0D TIF> >0x28 TIF> >0x0D TIF> >0x21 TIF> >0x0D TIF>
 >0x21 TIF>Found Cortex-M0 r0p0, Little endian. -- CPU_WriteMem(4 bytes @ 0xE0002000) -- CPU_ReadMem(4 bytes @ 0xE000EDF0) -- CPU_WriteMem(4 bytes @ 0xE000EDF0) -- CPU_ReadMem(4 bytes @ 0xE0002000)FPUnit: 4 code (BP) slots and 0 literal slots -- CPU_ReadMem(4 bytes @ 0xE000EDFC) -- CPU_WriteMem(4 bytes @ 0xE000EDFC) -- CPU_ReadMem(4 bytes @ 0xE0001000) -- CPU_WriteMem(4 bytes @ 0xE0001000) -- CPU_ReadMem(4 bytes @ 0xE00FF018) >0x0D TIF> >0x21 TIF>  returns 0x0BB11477 (0172ms, 0802ms total)
TB9A0 000:827 JLINK_GetDLLVersion()  returns 49005 (0000ms, 0802ms total)
TB9A0 000:827 JLINK_CORE_GetFound()  returns 0x60000FF (0000ms, 0802ms total)
TB9A0 000:827 JLINK_ReadMem (0xE00FF000, 0x0020 Bytes, ...) -- CPU is running -- CPU_ReadMem(32 bytes @ 0xE00FF000) - Data: 03 F0 F0 FF 03 20 F0 FF 03 30 F0 FF 00 00 00 00 ...  returns 0x00 (0004ms, 0806ms total)
TB9A0 000:831 JLINK_ReadMem (0xE000EFF0, 0x0010 Bytes, ...) -- CPU is running -- CPU_ReadMem(16 bytes @ 0xE000EFF0) - Data: 0D 00 00 00 E0 00 00 00 05 00 00 00 B1 00 00 00  returns 0x00 (0003ms, 0809ms total)
TB9A0 000:834 JLINK_ReadMem (0xE000EFD0, 0x0020 Bytes, ...) -- CPU is running -- CPU_ReadMem(32 bytes @ 0xE000EFD0) - Data: 04 00 00 00 00 00 00 00 00 00 00 00 00 00 00 00 ...  returns 0x00 (0004ms, 0813ms total)
TB9A0 000:838 JLINK_ReadMem (0xE0001FF0, 0x0010 Bytes, ...) -- CPU is running -- CPU_ReadMem(16 bytes @ 0xE0001FF0) - Data: 0D 00 00 00 E0 00 00 00 05 00 00 00 B1 00 00 00  returns 0x00 (0003ms, 0816ms total)
TB9A0 000:841 JLINK_ReadMem (0xE0001FD0, 0x0020 Bytes, ...) -- CPU is running -- CPU_ReadMem(32 bytes @ 0xE0001FD0) - Data: 04 00 00 00 00 00 00 00 00 00 00 00 00 00 00 00 ...  returns 0x00 (0004ms, 0820ms total)
TB9A0 000:845 JLINK_ReadMem (0xE0002FF0, 0x0010 Bytes, ...) -- CPU is running -- CPU_ReadMem(16 bytes @ 0xE0002FF0) - Data: 0D 00 00 00 E0 00 00 00 05 00 00 00 B1 00 00 00  returns 0x00 (0002ms, 0822ms total)
TB9A0 000:847 JLINK_ReadMem (0xE0002FD0, 0x0020 Bytes, ...) -- CPU is running -- CPU_ReadMem(32 bytes @ 0xE0002FD0) - Data: 04 00 00 00 00 00 00 00 00 00 00 00 00 00 00 00 ...  returns 0x00 (0004ms, 0826ms total)
TB9A0 000:851 JLINK_ReadMemU32(0xE000ED00, 0x0001 Items, ...) -- CPU is running -- CPU_ReadMem(4 bytes @ 0xE000ED00) - Data: 00 C2 0C 41  returns 0x01 (0003ms, 0829ms total)
TB9A0 000:854 JLINK_SetResetType(JLINKARM_RESET_TYPE_NORMAL)  returns JLINKARM_RESET_TYPE_NORMAL (0000ms, 0829ms total)
TB9A0 000:854 JLINK_Reset() -- CPU is running -- CPU_WriteMem(4 bytes @ 0xE000EDF0) -- CPU is running -- CPU_WriteMem(4 bytes @ 0xE000EDFC) >0x35 TIF> -- CPU is running -- CPU_WriteMem(4 bytes @ 0xE000ED0C) -- CPU is running -- CPU_ReadMem(4 bytes @ 0xE000EDF0) -- CPU is running -- CPU_ReadMem(4 bytes @ 0xE000EDF0) -- CPU is running -- CPU_WriteMem(4 bytes @ 0xE000EDF0) -- CPU is running -- CPU_WriteMem(4 bytes @ 0xE000EDFC) -- CPU is running -- CPU_ReadMem(4 bytes @ 0xE000EDF0)
 -- CPU_WriteMem(4 bytes @ 0xE0002000) -- CPU_ReadMem(4 bytes @ 0xE000EDFC) -- CPU_ReadMem(4 bytes @ 0xE0001000) -- CPU_WriteMem(4 bytes @ 0xE0001000) (0066ms, 0895ms total)
TB9A0 000:920 JLINK_ReadReg(R15 (PC))  returns 0x00000204 (0000ms, 0895ms total)
TB9A0 000:920 JLINK_ReadReg(XPSR)  returns 0xC1000000 (0000ms, 0895ms total)
TB9A0 000:920 JLINK_Halt()  returns 0x00 (0000ms, 0895ms total)
TB9A0 000:920 JLINK_IsHalted()  returns TRUE (0000ms, 0895ms total)
TB9A0 000:920 JLINK_ReadMemU32(0xE000EDF0, 0x0001 Items, ...) -- CPU_ReadMem(4 bytes @ 0xE000EDF0) - Data: 03 00 03 00  returns 0x01 (0003ms, 0898ms total)
TB9A0 000:923 JLINK_WriteU32(0xE000EDF0, 0xA05F0003) -- CPU_WriteMem(4 bytes @ 0xE000EDF0)  returns 0x00 (0004ms, 0902ms total)
TB9A0 000:927 JLINK_WriteU32(0xE000EDFC, 0x01000000) -- CPU_WriteMem(4 bytes @ 0xE000EDFC)  returns 0x00 (0002ms, 0904ms total)
TB9A0 000:929 JLINK_GetHWStatus(...)  returns 0x00 (0003ms, 0907ms total)
TB9A0 000:932 JLINK_GetNumBPUnits(Type = 0xFFFFFF00)  returns 0x04 (0000ms, 0907ms total)
TB9A0 000:932 JLINK_GetNumBPUnits(Type = 0xF0)  returns 0x2000 (0000ms, 0907ms total)
TB9A0 000:932 JLINK_GetNumWPUnits()  returns 0x02 (0000ms, 0907ms total)
TB9A0 000:932 JLINK_GetSpeed()  returns 0x1F4 (0000ms, 0907ms total)
TB9A0 000:932 JLINK_ReadMemU32(0xE000E004, 0x0001 Items, ...) -- CPU_ReadMem(4 bytes @ 0xE000E004) - Data: 00 00 00 00  returns 0x01 (0003ms, 0910ms total)
TB9A0 000:935 JLINK_ReadReg(R15 (PC))  returns 0x00000204 (0000ms, 0910ms total)
TB9A0 000:935 JLINK_ReadReg(XPSR)  returns 0xC1000000 (0000ms, 0910ms total)
TB9A0 001:013 JLINK_SetResetType(JLINKARM_RESET_TYPE_NORMAL)  returns JLINKARM_RESET_TYPE_NORMAL (0000ms, 0910ms total)
TB9A0 001:013 JLINK_Reset() -- CPU_WriteMem(4 bytes @ 0xE000EDF0) -- CPU_WriteMem(4 bytes @ 0xE000EDFC) >0x35 TIF> -- CPU_WriteMem(4 bytes @ 0xE000ED0C) -- CPU_ReadMem(4 bytes @ 0xE000EDF0) -- CPU_ReadMem(4 bytes @ 0xE000EDF0) -- CPU_WriteMem(4 bytes @ 0xE000EDF0) -- CPU_WriteMem(4 bytes @ 0xE000EDFC) -- CPU is running -- CPU_ReadMem(4 bytes @ 0xE000EDF0) -- CPU_WriteMem(4 bytes @ 0xE0002000) -- CPU_ReadMem(4 bytes @ 0xE000EDFC) -- CPU_ReadMem(4 bytes @ 0xE0001000) -- CPU_WriteMem(4 bytes @ 0xE0001000)
 (0067ms, 0977ms total)
TB9A0 001:080 JLINK_ReadReg(R15 (PC))  returns 0x00000204 (0000ms, 0977ms total)
TB9A0 001:081 JLINK_ReadReg(XPSR)  returns 0xC1000000 (0000ms, 0978ms total)
TB9A0 001:082 JLINK_ReadMem (0x00000104, 0x003C Bytes, ...) -- CPU_ReadMem(60 bytes @ 0x00000104) - Data: 10 3A 02 D3 78 C8 78 C1 FA D8 52 07 01 D3 30 C8 ...  returns 0x00 (0004ms, 0982ms total)
TB9A0 001:086 JLINK_ReadMem (0x00000140, 0x003C Bytes, ...) -- CPU_ReadMem(60 bytes @ 0x00000140) - Data: 02 D1 00 F0 83 F8 10 BD 00 20 10 BD 1F B5 00 F0 ...  returns 0x00 (0004ms, 0986ms total)
TB9A0 001:090 JLINK_ReadMem (0x0000017C, 0x003C Bytes, ...) -- CPU_ReadMem(60 bytes @ 0x0000017C) - Data: 08 42 02 D0 EF F3 09 80 01 E0 EF F3 08 80 71 46 ...  returns 0x00 (0004ms, 0990ms total)
TB9A0 001:094 JLINK_ReadMem (0x000001B8, 0x003C Bytes, ...) -- CPU_ReadMem(60 bytes @ 0x000001B8) - Data: 40 08 70 47 0C 00 DC 3C F6 E7 0A 00 DC 3A F3 E7 ...  returns 0x00 (0005ms, 0995ms total)
TB9A0 001:099 JLINK_ReadMem (0x000001F4, 0x003C Bytes, ...) -- CPU_ReadMem(60 bytes @ 0x000001F4) - Data: 03 E0 21 78 29 70 64 1C 6D 1C 76 1E F9 D2 70 BD ...  returns 0x00 (0003ms, 0998ms total)
TB9A0 001:169 JLINK_ReadMem (0x50000200, 0x0024 Bytes, ...) -- CPU_ReadMem(36 bytes @ 0x50000200) - Data: 1D 00 00 00 05 00 00 00 01 00 00 00 19 00 00 00 ...  returns 0x00 (0003ms, 1001ms total)
TB9A0 001:172 JLINK_ReadMem (0x50000224, 0x0004 Bytes, ...) -- CPU_ReadMem(4 bytes @ 0x50000224) - Data: 00 00 00 00  returns 0x00 (0003ms, 1004ms total)
TCC10 002:052 JLINK_SetBPEx(Addr = 0x00005FD0, Type = 0xFFFFFFF2)  returns 0x00000001 (0003ms, 1007ms total)
TCC10 002:055 JLINK_SetBPEx(Addr = 0x000055BC, Type = 0xFFFFFFF2)  returns 0x00000002 (0000ms, 1007ms total)
TCC10 002:055 JLINK_SetBPEx(Addr = 0x00004C22, Type = 0xFFFFFFF2)  returns 0x00000003 (0000ms, 1007ms total)
TCC10 002:055 JLINK_SetBPEx(Addr = 0x00001A32, Type = 0xFFFFFFF2)  returns 0x00000004 (0000ms, 1007ms total)
TCC10 002:055 JLINK_Go() -- CPU_WriteMem(4 bytes @ 0xE0002000) -- CPU_WriteMem(4 bytes @ 0xE0002008) -- CPU_WriteMem(4 bytes @ 0xE0002000) -- CPU_WriteMem(4 bytes @ 0xE000200C) -- CPU_WriteMem(4 bytes @ 0xE0002000) -- CPU_WriteMem(4 bytes @ 0xE0002010) -- CPU_WriteMem(4 bytes @ 0xE0002000) -- CPU_WriteMem(4 bytes @ 0xE0002014) -- CPU_WriteMem(4 bytes @ 0xE0001004) (0033ms, 1040ms total)
TCC10 002:188 JLINK_IsHalted()  returns TRUE (0014ms, 1054ms total)
TCC10 002:202 JLINK_Halt()  returns 0x00 (0000ms, 1040ms total)
TCC10 002:202 JLINK_IsHalted()  returns TRUE (0000ms, 1040ms total)
TCC10 002:202 JLINK_IsHalted()  returns TRUE (0000ms, 1040ms total)
TCC10 002:202 JLINK_IsHalted()  returns TRUE (0000ms, 1040ms total)
TCC10 002:202 JLINK_ReadReg(R15 (PC))  returns 0x00005FD0 (0000ms, 1040ms total)
TCC10 002:202 JLINK_ReadReg(XPSR)  returns 0x61000000 (0000ms, 1040ms total)
TCC10 002:202 JLINK_ClrBPEx(BPHandle = 0x00000001)  returns 0x00 (0000ms, 1040ms total)
TCC10 002:202 JLINK_ClrBPEx(BPHandle = 0x00000002)  returns 0x00 (0000ms, 1040ms total)
TCC10 002:202 JLINK_ClrBPEx(BPHandle = 0x00000003)  returns 0x00 (0000ms, 1040ms total)
TCC10 002:202 JLINK_ClrBPEx(BPHandle = 0x00000004)  returns 0x00 (0000ms, 1040ms total)
TCC10 002:202 JLINK_ReadMemU32(0xE000ED30, 0x0001 Items, ...) -- CPU_ReadMem(4 bytes @ 0xE000ED30) - Data: 02 00 00 00  returns 0x01 (0003ms, 1043ms total)
TCC10 002:205 JLINK_ReadMemU32(0xE0001028, 0x0001 Items, ...) -- CPU_ReadMem(4 bytes @ 0xE0001028) - Data: 00 00 00 00  returns 0x01 (0004ms, 1047ms total)
TCC10 002:209 JLINK_ReadMemU32(0xE0001038, 0x0001 Items, ...) -- CPU_ReadMem(4 bytes @ 0xE0001038) - Data: 00 00 00 00  returns 0x01 (0003ms, 1050ms total)
TCC10 002:212 JLINK_ReadReg(R0)  returns 0x200005E0 (0000ms, 1050ms total)
TCC10 002:212 JLINK_ReadReg(R1)  returns 0x200005E0 (0000ms, 1050ms total)
TCC10 002:212 JLINK_ReadReg(R2)  returns 0x200005E0 (0000ms, 1050ms total)
TCC10 002:212 JLINK_ReadReg(R3)  returns 0x200005E0 (0000ms, 1050ms total)
TCC10 002:212 JLINK_ReadReg(R4)  returns 0x00006804 (0000ms, 1050ms total)
TCC10 002:212 JLINK_ReadReg(R5)  returns 0x2000057C (0000ms, 1050ms total)
TCC10 002:212 JLINK_ReadReg(R6)  returns 0x00000000 (0000ms, 1050ms total)
TCC10 002:212 JLINK_ReadReg(R7)  returns 0x00000000 (0000ms, 1050ms total)
TCC10 002:212 JLINK_ReadReg(R8)  returns 0xFFFFFFFF (0000ms, 1050ms total)
TCC10 002:212 JLINK_ReadReg(R9)  returns 0xFFFFFFFF (0000ms, 1050ms total)
TCC10 002:212 JLINK_ReadReg(R10)  returns 0x00006804 (0000ms, 1050ms total)
TCC10 002:212 JLINK_ReadReg(R11)  returns 0x00006804 (0000ms, 1050ms total)
TCC10 002:212 JLINK_ReadReg(R12)  returns 0xFFFFFFFF (0000ms, 1050ms total)
TCC10 002:212 JLINK_ReadReg(R13 (SP))  returns 0x200007E0 (0000ms, 1050ms total)
TCC10 002:212 JLINK_ReadReg(R14)  returns 0x00000167 (0000ms, 1050ms total)
TCC10 002:212 JLINK_ReadReg(R15 (PC))  returns 0x00005FD0 (0000ms, 1050ms total)
TCC10 002:212 JLINK_ReadReg(XPSR)  returns 0x61000000 (0000ms, 1050ms total)
TCC10 002:212 JLINK_ReadReg(MSP)  returns 0x200007E0 (0000ms, 1050ms total)
TCC10 002:212 JLINK_ReadReg(PSP)  returns 0xFFFFFFFC (0000ms, 1050ms total)
TCC10 002:212 JLINK_ReadReg(CFBP)  returns 0x00000000 (0000ms, 1050ms total)
TB9A0 002:213 JLINK_ReadMem (0x200007DC, 0x0001 Bytes, ...) -- CPU_ReadMem(1 bytes @ 0x200007DC) - Data: 63  returns 0x00 (0003ms, 1053ms total)
TB9A0 002:216 JLINK_ReadMem (0x00000000, 0x0004 Bytes, ...) -- CPU_ReadMem(64 bytes @ 0x00000000) -- Updating DA cache (64 bytes @ 0x00000000) -- Read from DA cache (4 bytes @ 0x00000000) - Data: E0 07 00 20  returns 0x00 (0006ms, 1059ms total)
TB9A0 002:222 JLINK_ReadMem (0x200007CC, 0x0005 Bytes, ...) -- CPU_ReadMem(5 bytes @ 0x200007CC) - Data: E0 05 00 20 E0  returns 0x00 (0002ms, 1061ms total)
TB9A0 002:224 JLINK_ReadMem (0x200007C4, 0x0005 Bytes, ...) -- CPU_ReadMem(5 bytes @ 0x200007C4) - Data: 53 01 00 00 E0  returns 0x00 (0003ms, 1064ms total)
TB9A0 002:231 JLINK_ReadMem (0x50000200, 0x0024 Bytes, ...) -- CPU_ReadMem(36 bytes @ 0x50000200) - Data: 1D 00 00 00 05 00 00 00 01 00 00 00 19 00 00 00 ...  returns 0x00 (0003ms, 1067ms total)
TB9A0 002:234 JLINK_ReadMem (0x50000224, 0x0004 Bytes, ...) -- CPU_ReadMem(4 bytes @ 0x50000224) - Data: 00 00 00 00  returns 0x00 (0004ms, 1071ms total)
TB9A0 002:240 JLINK_ReadMem (0x00005FCE, 0x0002 Bytes, ...) -- CPU_ReadMem(64 bytes @ 0x00005FC0) -- Updating DA cache (64 bytes @ 0x00005FC0) -- Read from DA cache (2 bytes @ 0x00005FCE) - Data: 30 BD  returns 0x00 (0003ms, 1074ms total)
TB9A0 002:243 JLINK_ReadMem (0x00005FD0, 0x0030 Bytes, ...) -- Read from DA cache (48 bytes @ 0x00005FD0) - Data: 88 B0 00 20 07 90 00 BF 00 BF 00 26 77 49 03 C9 ...  returns 0x00 (0000ms, 1074ms total)
TB9A0 002:243 JLINK_ReadMem (0x00006000, 0x000C Bytes, ...) -- CPU_ReadMem(64 bytes @ 0x00006000) -- Updating DA cache (64 bytes @ 0x00006000) -- Read from DA cache (12 bytes @ 0x00006000) - Data: 99 FB FD F7 C1 FC 05 46 E8 1D F9 30  returns 0x00 (0004ms, 1078ms total)
TB9A0 022:129 JLINK_ReadMem (0x000060AA, 0x0002 Bytes, ...) -- CPU_ReadMem(64 bytes @ 0x00006080) -- Updating DA cache (64 bytes @ 0x00006080) -- Read from DA cache (2 bytes @ 0x000060AA) - Data: 05 22  returns 0x00 (0006ms, 1085ms total)
TB9A0 022:135 JLINK_ReadMem (0x000060AC, 0x003C Bytes, ...) -- CPU_ReadMem(64 bytes @ 0x000060C0) -- Updating DA cache (64 bytes @ 0x000060C0) -- Read from DA cache (60 bytes @ 0x000060AC) - Data: 03 A9 10 20 FB F7 F5 FC 05 22 01 A9 10 20 FB F7 ...  returns 0x00 (0005ms, 1090ms total)
TCC10 023:870 JLINK_SetBPEx(Addr = 0x000060AA, Type = 0xFFFFFFF2)  returns 0x00000005 (0003ms, 1093ms total)
TCC10 023:873 JLINK_SetBPEx(Addr = 0x000055BC, Type = 0xFFFFFFF2)  returns 0x00000006 (0000ms, 1093ms total)
TCC10 023:873 JLINK_SetBPEx(Addr = 0x00004C22, Type = 0xFFFFFFF2)  returns 0x00000007 (0000ms, 1093ms total)
TCC10 023:873 JLINK_SetBPEx(Addr = 0x00001A32, Type = 0xFFFFFFF2)  returns 0x00000008 (0000ms, 1093ms total)
TCC10 023:873 JLINK_Go() -- CPU_WriteMem(4 bytes @ 0xE0002000) -- CPU_WriteMem(4 bytes @ 0xE0002000) -- CPU_WriteMem(4 bytes @ 0xE0002000) -- CPU_WriteMem(4 bytes @ 0xE0002000) -- CPU_WriteMem(4 bytes @ 0xE0002008) (0018ms, 1111ms total)
TCC10 023:991 JLINK_IsHalted()  returns FALSE (0002ms, 1113ms total)
TCC10 024:093 JLINK_IsHalted()  returns FALSE (0002ms, 1113ms total)
TCC10 024:195 JLINK_IsHalted()  returns FALSE (0002ms, 1113ms total)
TCC10 024:297 JLINK_IsHalted()  returns FALSE (0002ms, 1113ms total)
TCC10 024:399 JLINK_IsHalted()  returns FALSE (0002ms, 1113ms total)
TB9A0 024:501 JLINK_ReadMem (0x50000200, 0x0024 Bytes, ...) -- CPU is running -- CPU_ReadMem(36 bytes @ 0x50000200) - Data: 05 00 00 00 05 00 00 00 01 10 01 00 11 00 00 00 ...  returns 0x00 (0002ms, 1113ms total)
TB9A0 024:503 JLINK_ReadMem (0x50000224, 0x0004 Bytes, ...) -- CPU is running -- CPU_ReadMem(4 bytes @ 0x50000224) - Data: 00 00 00 00  returns 0x00 (0003ms, 1116ms total)
TCC10 024:513 JLINK_IsHalted()  returns FALSE (0003ms, 1119ms total)
TCC10 024:616 JLINK_IsHalted()  returns FALSE (0002ms, 1118ms total)
TCC10 024:718 JLINK_IsHalted()  returns FALSE (0002ms, 1118ms total)
TCC10 024:820 JLINK_IsHalted()  returns FALSE (0002ms, 1118ms total)
TCC10 024:922 JLINK_IsHalted()  returns FALSE (0005ms, 1121ms total)
TB9A0 025:027 JLINK_ReadMem (0x50000200, 0x0024 Bytes, ...) -- CPU is running -- CPU_ReadMem(36 bytes @ 0x50000200) - Data: 05 00 00 00 05 00 00 00 01 10 01 00 11 00 00 00 ...  returns 0x00 (0002ms, 1118ms total)
TB9A0 025:029 JLINK_ReadMem (0x50000224, 0x0004 Bytes, ...) -- CPU is running -- CPU_ReadMem(4 bytes @ 0x50000224) - Data: 00 00 00 00  returns 0x00 (0003ms, 1121ms total)
TCC10 025:032 JLINK_IsHalted()  returns FALSE (0003ms, 1124ms total)
TCC10 025:135 JLINK_IsHalted()  returns TRUE (0014ms, 1135ms total)
TCC10 025:149 JLINK_Halt()  returns 0x00 (0000ms, 1121ms total)
TCC10 025:149 JLINK_IsHalted()  returns TRUE (0000ms, 1121ms total)
TCC10 025:149 JLINK_IsHalted()  returns TRUE (0000ms, 1121ms total)
TCC10 025:149 JLINK_IsHalted()  returns TRUE (0000ms, 1121ms total)
TCC10 025:149 JLINK_ReadReg(R15 (PC))  returns 0x000060AA (0000ms, 1121ms total)
TCC10 025:149 JLINK_ReadReg(XPSR)  returns 0x61000000 (0000ms, 1121ms total)
TCC10 025:149 JLINK_ClrBPEx(BPHandle = 0x00000005)  returns 0x00 (0000ms, 1121ms total)
TCC10 025:149 JLINK_ClrBPEx(BPHandle = 0x00000006)  returns 0x00 (0000ms, 1121ms total)
TCC10 025:149 JLINK_ClrBPEx(BPHandle = 0x00000007)  returns 0x00 (0000ms, 1121ms total)
TCC10 025:149 JLINK_ClrBPEx(BPHandle = 0x00000008)  returns 0x00 (0000ms, 1121ms total)
TCC10 025:149 JLINK_ReadMemU32(0xE000ED30, 0x0001 Items, ...) -- CPU_ReadMem(4 bytes @ 0xE000ED30) - Data: 02 00 00 00  returns 0x01 (0003ms, 1124ms total)
TCC10 025:152 JLINK_ReadMemU32(0xE0001028, 0x0001 Items, ...) -- CPU_ReadMem(4 bytes @ 0xE0001028) - Data: 00 00 00 00  returns 0x01 (0002ms, 1126ms total)
TCC10 025:154 JLINK_ReadMemU32(0xE0001038, 0x0001 Items, ...) -- CPU_ReadMem(4 bytes @ 0xE0001038) - Data: 00 00 00 00  returns 0x01 (0003ms, 1129ms total)
TCC10 025:157 JLINK_ReadReg(R0)  returns 0x00000005 (0000ms, 1129ms total)
TCC10 025:157 JLINK_ReadReg(R1)  returns 0x200007CC (0000ms, 1129ms total)
TCC10 025:157 JLINK_ReadReg(R2)  returns 0x00593FEC (0000ms, 1129ms total)
TCC10 025:157 JLINK_ReadReg(R3)  returns 0x00000000 (0000ms, 1129ms total)
TCC10 025:157 JLINK_ReadReg(R4)  returns 0x00000005 (0000ms, 1129ms total)
TCC10 025:157 JLINK_ReadReg(R5)  returns 0x20000230 (0000ms, 1129ms total)
TCC10 025:157 JLINK_ReadReg(R6)  returns 0x000003E8 (0000ms, 1129ms total)
TCC10 025:157 JLINK_ReadReg(R7)  returns 0x58E6AD07 (0000ms, 1129ms total)
TCC10 025:157 JLINK_ReadReg(R8)  returns 0xFFFFFFFF (0000ms, 1129ms total)
TCC10 025:157 JLINK_ReadReg(R9)  returns 0xFFFFFFFF (0000ms, 1129ms total)
TCC10 025:157 JLINK_ReadReg(R10)  returns 0x00006804 (0000ms, 1129ms total)
TCC10 025:157 JLINK_ReadReg(R11)  returns 0x00006804 (0000ms, 1129ms total)
TCC10 025:157 JLINK_ReadReg(R12)  returns 0x00000000 (0000ms, 1129ms total)
TCC10 025:157 JLINK_ReadReg(R13 (SP))  returns 0x200007C0 (0001ms, 1130ms total)
TCC10 025:158 JLINK_ReadReg(R14)  returns 0x0000609D (0000ms, 1130ms total)
TCC10 025:158 JLINK_ReadReg(R15 (PC))  returns 0x000060AA (0000ms, 1130ms total)
TCC10 025:158 JLINK_ReadReg(XPSR)  returns 0x61000000 (0000ms, 1130ms total)
TCC10 025:158 JLINK_ReadReg(MSP)  returns 0x200007C0 (0000ms, 1130ms total)
TCC10 025:158 JLINK_ReadReg(PSP)  returns 0xFFFFFFFC (0000ms, 1130ms total)
TCC10 025:158 JLINK_ReadReg(CFBP)  returns 0x00000000 (0000ms, 1130ms total)
TB9A0 025:158 JLINK_ReadMem (0x200007DC, 0x0001 Bytes, ...) -- CPU_ReadMem(1 bytes @ 0x200007DC) - Data: 3F  returns 0x00 (0002ms, 1132ms total)
TB9A0 025:161 JLINK_ReadMem (0x00000000, 0x0004 Bytes, ...) -- CPU_ReadMem(64 bytes @ 0x00000000) -- Updating DA cache (64 bytes @ 0x00000000) -- Read from DA cache (4 bytes @ 0x00000000) - Data: E0 07 00 20  returns 0x00 (0003ms, 1135ms total)
TB9A0 025:164 JLINK_ReadMem (0x200007CC, 0x0005 Bytes, ...) -- CPU_ReadMem(5 bytes @ 0x200007CC) - Data: EE DE B8 5F F3  returns 0x00 (0003ms, 1138ms total)
TB9A0 025:167 JLINK_ReadMem (0x200007C4, 0x0005 Bytes, ...) -- CPU_ReadMem(5 bytes @ 0x200007C4) - Data: 53 01 00 00 E0  returns 0x00 (0003ms, 1141ms total)
TB9A0 025:170 JLINK_ReadMem (0x50000200, 0x0024 Bytes, ...) -- CPU_ReadMem(36 bytes @ 0x50000200) - Data: 05 00 00 00 05 00 00 00 01 10 01 00 11 00 00 00 ...  returns 0x00 (0003ms, 1144ms total)
TB9A0 025:173 JLINK_ReadMem (0x50000224, 0x0004 Bytes, ...) -- CPU_ReadMem(4 bytes @ 0x50000224) - Data: 00 00 00 00  returns 0x00 (0002ms, 1146ms total)
TCC10 032:253 JLINK_Step() -- CPU_ReadMem(64 bytes @ 0x00006080) -- Updating DA cache (64 bytes @ 0x00006080) -- Read from DA cache (2 bytes @ 0x000060AA) -- CPU_ReadMem(4 bytes @ 0xE0001004) -- Simulated  returns 0x00 (0012ms, 1158ms total)
TCC10 032:265 JLINK_ReadReg(R15 (PC))  returns 0x000060AC (0000ms, 1158ms total)
TCC10 032:265 JLINK_ReadReg(XPSR)  returns 0x21000000 (0000ms, 1158ms total)
TCC10 032:265 JLINK_ReadReg(R0)  returns 0x00000005 (0000ms, 1158ms total)
TCC10 032:265 JLINK_ReadReg(R1)  returns 0x200007CC (0000ms, 1158ms total)
TCC10 032:265 JLINK_ReadReg(R2)  returns 0x00000005 (0000ms, 1158ms total)
TCC10 032:265 JLINK_ReadReg(R3)  returns 0x00000000 (0000ms, 1158ms total)
TCC10 032:265 JLINK_ReadReg(R4)  returns 0x00000005 (0000ms, 1158ms total)
TCC10 032:266 JLINK_ReadReg(R5)  returns 0x20000230 (0000ms, 1159ms total)
TCC10 032:266 JLINK_ReadReg(R6)  returns 0x000003E8 (0000ms, 1159ms total)
TCC10 032:266 JLINK_ReadReg(R7)  returns 0x58E6AD07 (0000ms, 1159ms total)
TCC10 032:266 JLINK_ReadReg(R8)  returns 0xFFFFFFFF (0000ms, 1159ms total)
TCC10 032:266 JLINK_ReadReg(R9)  returns 0xFFFFFFFF (0000ms, 1159ms total)
TCC10 032:266 JLINK_ReadReg(R10)  returns 0x00006804 (0000ms, 1159ms total)
TCC10 032:266 JLINK_ReadReg(R11)  returns 0x00006804 (0000ms, 1159ms total)
TCC10 032:266 JLINK_ReadReg(R12)  returns 0x00000000 (0000ms, 1159ms total)
TCC10 032:266 JLINK_ReadReg(R13 (SP))  returns 0x200007C0 (0000ms, 1159ms total)
TCC10 032:266 JLINK_ReadReg(R14)  returns 0x0000609D (0000ms, 1159ms total)
TCC10 032:266 JLINK_ReadReg(R15 (PC))  returns 0x000060AC (0000ms, 1159ms total)
TCC10 032:266 JLINK_ReadReg(XPSR)  returns 0x21000000 (0000ms, 1159ms total)
TCC10 032:266 JLINK_ReadReg(MSP)  returns 0x200007C0 (0000ms, 1159ms total)
TCC10 032:266 JLINK_ReadReg(PSP)  returns 0xFFFFFFFC (0000ms, 1159ms total)
TCC10 032:266 JLINK_ReadReg(CFBP)  returns 0x00000000 (0000ms, 1159ms total)
TB9A0 032:266 JLINK_ReadMem (0x200007DC, 0x0001 Bytes, ...) -- CPU_ReadMem(1 bytes @ 0x200007DC) - Data: 3F  returns 0x00 (0003ms, 1162ms total)
TB9A0 032:269 JLINK_ReadMem (0x00000000, 0x0004 Bytes, ...) -- Read from DA cache (4 bytes @ 0x00000000) - Data: E0 07 00 20  returns 0x00 (0000ms, 1162ms total)
TB9A0 032:270 JLINK_ReadMem (0x200007CC, 0x0005 Bytes, ...) -- CPU_ReadMem(5 bytes @ 0x200007CC) - Data: EE DE B8 5F F3  returns 0x00 (0002ms, 1164ms total)
TB9A0 032:273 JLINK_ReadMem (0x200007C4, 0x0005 Bytes, ...) -- CPU_ReadMem(5 bytes @ 0x200007C4) - Data: 53 01 00 00 E0  returns 0x00 (0003ms, 1167ms total)
TB9A0 032:276 JLINK_ReadMem (0x50000200, 0x0024 Bytes, ...) -- CPU_ReadMem(36 bytes @ 0x50000200) - Data: 05 00 00 00 05 00 00 00 01 10 01 00 11 00 00 00 ...  returns 0x00 (0004ms, 1171ms total)
TB9A0 032:280 JLINK_ReadMem (0x50000224, 0x0004 Bytes, ...) -- CPU_ReadMem(4 bytes @ 0x50000224) - Data: 00 00 00 00  returns 0x00 (0002ms, 1173ms total)
TCC10 032:818 JLINK_Step() -- Read from DA cache (2 bytes @ 0x000060AC) -- Simulated  returns 0x00 (0003ms, 1176ms total)
TCC10 032:821 JLINK_ReadReg(R15 (PC))  returns 0x000060AE (0000ms, 1176ms total)
TCC10 032:821 JLINK_ReadReg(XPSR)  returns 0x21000000 (0000ms, 1176ms total)
TCC10 032:821 JLINK_ReadReg(R0)  returns 0x00000005 (0000ms, 1176ms total)
TCC10 032:821 JLINK_ReadReg(R1)  returns 0x200007CC (0000ms, 1176ms total)
TCC10 032:821 JLINK_ReadReg(R2)  returns 0x00000005 (0000ms, 1176ms total)
TCC10 032:821 JLINK_ReadReg(R3)  returns 0x00000000 (0000ms, 1176ms total)
TCC10 032:821 JLINK_ReadReg(R4)  returns 0x00000005 (0000ms, 1176ms total)
TCC10 032:821 JLINK_ReadReg(R5)  returns 0x20000230 (0000ms, 1176ms total)
TCC10 032:821 JLINK_ReadReg(R6)  returns 0x000003E8 (0000ms, 1176ms total)
TCC10 032:821 JLINK_ReadReg(R7)  returns 0x58E6AD07 (0000ms, 1176ms total)
TCC10 032:821 JLINK_ReadReg(R8)  returns 0xFFFFFFFF (0000ms, 1176ms total)
TCC10 032:821 JLINK_ReadReg(R9)  returns 0xFFFFFFFF (0000ms, 1176ms total)
TCC10 032:821 JLINK_ReadReg(R10)  returns 0x00006804 (0000ms, 1176ms total)
TCC10 032:821 JLINK_ReadReg(R11)  returns 0x00006804 (0000ms, 1176ms total)
TCC10 032:821 JLINK_ReadReg(R12)  returns 0x00000000 (0000ms, 1176ms total)
TCC10 032:821 JLINK_ReadReg(R13 (SP))  returns 0x200007C0 (0000ms, 1176ms total)
TCC10 032:821 JLINK_ReadReg(R14)  returns 0x0000609D (0000ms, 1176ms total)
TCC10 032:821 JLINK_ReadReg(R15 (PC))  returns 0x000060AE (0000ms, 1176ms total)
TCC10 032:821 JLINK_ReadReg(XPSR)  returns 0x21000000 (0000ms, 1176ms total)
TCC10 032:821 JLINK_ReadReg(MSP)  returns 0x200007C0 (0000ms, 1176ms total)
TCC10 032:821 JLINK_ReadReg(PSP)  returns 0xFFFFFFFC (0000ms, 1176ms total)
TCC10 032:821 JLINK_ReadReg(CFBP)  returns 0x00000000 (0000ms, 1176ms total)
TB9A0 032:821 JLINK_ReadMem (0x200007DC, 0x0001 Bytes, ...) -- CPU_ReadMem(1 bytes @ 0x200007DC) - Data: 3F  returns 0x00 (0003ms, 1179ms total)
TB9A0 032:824 JLINK_ReadMem (0x00000000, 0x0004 Bytes, ...) -- Read from DA cache (4 bytes @ 0x00000000) - Data: E0 07 00 20  returns 0x00 (0000ms, 1179ms total)
TB9A0 032:824 JLINK_ReadMem (0x200007CC, 0x0005 Bytes, ...) -- CPU_ReadMem(5 bytes @ 0x200007CC) - Data: EE DE B8 5F F3  returns 0x00 (0003ms, 1182ms total)
TB9A0 032:827 JLINK_ReadMem (0x200007C4, 0x0005 Bytes, ...) -- CPU_ReadMem(5 bytes @ 0x200007C4) - Data: 53 01 00 00 E0  returns 0x00 (0004ms, 1186ms total)
TB9A0 032:831 JLINK_ReadMem (0x50000200, 0x0024 Bytes, ...) -- CPU_ReadMem(36 bytes @ 0x50000200) - Data: 05 00 00 00 05 00 00 00 01 10 01 00 11 00 00 00 ...  returns 0x00 (0003ms, 1189ms total)
TB9A0 032:834 JLINK_ReadMem (0x50000224, 0x0004 Bytes, ...) -- CPU_ReadMem(4 bytes @ 0x50000224) - Data: 00 00 00 00  returns 0x00 (0002ms, 1191ms total)
TCC10 033:330 JLINK_Step() -- Read from DA cache (2 bytes @ 0x000060AE) -- Simulated  returns 0x00 (0006ms, 1197ms total)
TCC10 033:336 JLINK_ReadReg(R15 (PC))  returns 0x000060B0 (0000ms, 1197ms total)
TCC10 033:336 JLINK_ReadReg(XPSR)  returns 0x21000000 (0000ms, 1197ms total)
TCC10 033:336 JLINK_ReadReg(R0)  returns 0x00000010 (0000ms, 1197ms total)
TCC10 033:336 JLINK_ReadReg(R1)  returns 0x200007CC (0000ms, 1197ms total)
TCC10 033:336 JLINK_ReadReg(R2)  returns 0x00000005 (0000ms, 1197ms total)
TCC10 033:336 JLINK_ReadReg(R3)  returns 0x00000000 (0000ms, 1197ms total)
TCC10 033:336 JLINK_ReadReg(R4)  returns 0x00000005 (0000ms, 1197ms total)
TCC10 033:336 JLINK_ReadReg(R5)  returns 0x20000230 (0000ms, 1197ms total)
TCC10 033:336 JLINK_ReadReg(R6)  returns 0x000003E8 (0000ms, 1197ms total)
TCC10 033:336 JLINK_ReadReg(R7)  returns 0x58E6AD07 (0000ms, 1197ms total)
TCC10 033:336 JLINK_ReadReg(R8)  returns 0xFFFFFFFF (0000ms, 1197ms total)
TCC10 033:336 JLINK_ReadReg(R9)  returns 0xFFFFFFFF (0000ms, 1197ms total)
TCC10 033:336 JLINK_ReadReg(R10)  returns 0x00006804 (0000ms, 1197ms total)
TCC10 033:336 JLINK_ReadReg(R11)  returns 0x00006804 (0000ms, 1197ms total)
TCC10 033:336 JLINK_ReadReg(R12)  returns 0x00000000 (0000ms, 1197ms total)
TCC10 033:336 JLINK_ReadReg(R13 (SP))  returns 0x200007C0 (0000ms, 1197ms total)
TCC10 033:336 JLINK_ReadReg(R14)  returns 0x0000609D (0000ms, 1197ms total)
TCC10 033:336 JLINK_ReadReg(R15 (PC))  returns 0x000060B0 (0000ms, 1197ms total)
TCC10 033:336 JLINK_ReadReg(XPSR)  returns 0x21000000 (0000ms, 1197ms total)
TCC10 033:336 JLINK_ReadReg(MSP)  returns 0x200007C0 (0000ms, 1197ms total)
TCC10 033:336 JLINK_ReadReg(PSP)  returns 0xFFFFFFFC (0000ms, 1197ms total)
TCC10 033:336 JLINK_ReadReg(CFBP)  returns 0x00000000 (0000ms, 1197ms total)
TB9A0 033:337 JLINK_ReadMem (0x200007DC, 0x0001 Bytes, ...) -- CPU_ReadMem(1 bytes @ 0x200007DC) - Data: 3F  returns 0x00 (0003ms, 1200ms total)
TB9A0 033:340 JLINK_ReadMem (0x00000000, 0x0004 Bytes, ...) -- Read from DA cache (4 bytes @ 0x00000000) - Data: E0 07 00 20  returns 0x00 (0000ms, 1200ms total)
TB9A0 033:340 JLINK_ReadMem (0x200007CC, 0x0005 Bytes, ...) -- CPU_ReadMem(5 bytes @ 0x200007CC) - Data: EE DE B8 5F F3  returns 0x00 (0002ms, 1202ms total)
TB9A0 033:342 JLINK_ReadMem (0x200007C4, 0x0005 Bytes, ...) -- CPU_ReadMem(5 bytes @ 0x200007C4) - Data: 53 01 00 00 E0  returns 0x00 (0003ms, 1205ms total)
TB9A0 033:345 JLINK_ReadMem (0x50000200, 0x0024 Bytes, ...) -- CPU_ReadMem(36 bytes @ 0x50000200) - Data: 05 00 00 00 05 00 00 00 01 10 01 00 11 00 00 00 ...  returns 0x00 (0004ms, 1209ms total)
TB9A0 033:349 JLINK_ReadMem (0x50000224, 0x0004 Bytes, ...) -- CPU_ReadMem(4 bytes @ 0x50000224) - Data: 00 00 00 00  returns 0x00 (0003ms, 1212ms total)
TCC10 033:842 JLINK_Step() -- Read from DA cache (2 bytes @ 0x000060B0) -- Not simulated -- CPU_WriteMem(4 bytes @ 0xE0002008) -- CPU_WriteMem(4 bytes @ 0xE000200C) -- CPU_WriteMem(4 bytes @ 0xE0002010) -- CPU_WriteMem(4 bytes @ 0xE0002014) -- CPU_WriteMem(4 bytes @ 0xE0001004)  returns 0x00 (0032ms, 1244ms total)
TCC10 033:874 JLINK_ReadReg(R15 (PC))  returns 0x00001A9E (0000ms, 1244ms total)
TCC10 033:874 JLINK_ReadReg(XPSR)  returns 0x21000000 (0000ms, 1244ms total)
TCC10 033:874 JLINK_ReadReg(R0)  returns 0x00000010 (0000ms, 1244ms total)
TCC10 033:874 JLINK_ReadReg(R1)  returns 0x200007CC (0000ms, 1244ms total)
TCC10 033:874 JLINK_ReadReg(R2)  returns 0x00000005 (0000ms, 1244ms total)
TCC10 033:874 JLINK_ReadReg(R3)  returns 0x00000000 (0000ms, 1244ms total)
TCC10 033:874 JLINK_ReadReg(R4)  returns 0x00000005 (0000ms, 1244ms total)
TCC10 033:874 JLINK_ReadReg(R5)  returns 0x20000230 (0000ms, 1244ms total)
TCC10 033:874 JLINK_ReadReg(R6)  returns 0x000003E8 (0000ms, 1244ms total)
TCC10 033:874 JLINK_ReadReg(R7)  returns 0x58E6AD07 (0000ms, 1244ms total)
TCC10 033:874 JLINK_ReadReg(R8)  returns 0xFFFFFFFF (0000ms, 1244ms total)
TCC10 033:874 JLINK_ReadReg(R9)  returns 0xFFFFFFFF (0000ms, 1244ms total)
TCC10 033:874 JLINK_ReadReg(R10)  returns 0x00006804 (0000ms, 1244ms total)
TCC10 033:874 JLINK_ReadReg(R11)  returns 0x00006804 (0000ms, 1244ms total)
TCC10 033:874 JLINK_ReadReg(R12)  returns 0x00000000 (0000ms, 1244ms total)
TCC10 033:874 JLINK_ReadReg(R13 (SP))  returns 0x200007C0 (0000ms, 1244ms total)
TCC10 033:874 JLINK_ReadReg(R14)  returns 0x000060B5 (0000ms, 1244ms total)
TCC10 033:874 JLINK_ReadReg(R15 (PC))  returns 0x00001A9E (0000ms, 1244ms total)
TCC10 033:874 JLINK_ReadReg(XPSR)  returns 0x21000000 (0000ms, 1244ms total)
TCC10 033:874 JLINK_ReadReg(MSP)  returns 0x200007C0 (0000ms, 1244ms total)
TCC10 033:874 JLINK_ReadReg(PSP)  returns 0xFFFFFFFC (0001ms, 1245ms total)
TCC10 033:875 JLINK_ReadReg(CFBP)  returns 0x00000000 (0000ms, 1245ms total)
TB9A0 033:875 JLINK_ReadMem (0x00000000, 0x0002 Bytes, ...) -- CPU_ReadMem(64 bytes @ 0x00000000) -- Updating DA cache (64 bytes @ 0x00000000) -- Read from DA cache (2 bytes @ 0x00000000) - Data: E0 07  returns 0x00 (0003ms, 1248ms total)
TB9A0 033:878 JLINK_ReadMem (0x00000000, 0x0004 Bytes, ...) -- Read from DA cache (4 bytes @ 0x00000000) - Data: E0 07 00 20  returns 0x00 (0000ms, 1248ms total)
TB9A0 033:882 JLINK_ReadMem (0x200007DC, 0x0001 Bytes, ...) -- CPU_ReadMem(1 bytes @ 0x200007DC) - Data: 3F  returns 0x00 (0003ms, 1251ms total)
TB9A0 033:885 JLINK_ReadMem (0x200007CC, 0x0005 Bytes, ...) -- CPU_ReadMem(5 bytes @ 0x200007CC) - Data: EE DE B8 5F F3  returns 0x00 (0003ms, 1254ms total)
TB9A0 033:888 JLINK_ReadMem (0x200007C4, 0x0005 Bytes, ...) -- CPU_ReadMem(5 bytes @ 0x200007C4) - Data: 53 01 00 00 E0  returns 0x00 (0003ms, 1257ms total)
TB9A0 033:891 JLINK_ReadMem (0x50000200, 0x0024 Bytes, ...) -- CPU_ReadMem(36 bytes @ 0x50000200) - Data: 05 00 00 00 05 00 00 00 01 10 01 00 11 00 00 00 ...  returns 0x00 (0002ms, 1259ms total)
TB9A0 033:893 JLINK_ReadMem (0x50000224, 0x0004 Bytes, ...) -- CPU_ReadMem(4 bytes @ 0x50000224) - Data: 00 00 00 00  returns 0x00 (0003ms, 1262ms total)
TB9A0 033:897 JLINK_ReadMem (0x00001A9A, 0x0002 Bytes, ...) -- CPU_ReadMem(64 bytes @ 0x00001A80) -- Updating DA cache (64 bytes @ 0x00001A80) -- Read from DA cache (2 bytes @ 0x00001A9A) - Data: 30 46  returns 0x00 (0004ms, 1266ms total)
TB9A0 033:901 JLINK_ReadMem (0x00001A9C, 0x003C Bytes, ...) -- CPU_ReadMem(64 bytes @ 0x00001AC0) -- Updating DA cache (64 bytes @ 0x00001AC0) -- Read from DA cache (60 bytes @ 0x00001A9C) - Data: DA E7 F8 B5 05 46 0E 46 17 46 00 24 06 E0 31 5D ...  returns 0x00 (0003ms, 1269ms total)
TB9A0 033:912 JLINK_ReadMem (0x000018B8, 0x003C Bytes, ...) -- CPU_ReadMem(128 bytes @ 0x00001880) -- Updating DA cache (128 bytes @ 0x00001880) -- Read from DA cache (60 bytes @ 0x000018B8) - Data: 02 22 11 46 09 48 01 F0 71 F9 02 20 01 F0 D4 F8 ...  returns 0x00 (0005ms, 1274ms total)
TCC10 042:718 JLINK_Step() -- Read from DA cache (2 bytes @ 0x00001A9E) -- CPU_ReadMem(4 bytes @ 0xE0001004) -- Not simulated  returns 0x00 (0027ms, 1301ms total)
TCC10 042:745 JLINK_ReadReg(R15 (PC))  returns 0x00001AA0 (0000ms, 1301ms total)
TCC10 042:745 JLINK_ReadReg(XPSR)  returns 0x21000000 (0000ms, 1301ms total)
TCC10 042:745 JLINK_ReadReg(R0)  returns 0x00000010 (0000ms, 1301ms total)
TCC10 042:745 JLINK_ReadReg(R1)  returns 0x200007CC (0000ms, 1301ms total)
TCC10 042:745 JLINK_ReadReg(R2)  returns 0x00000005 (0000ms, 1301ms total)
TCC10 042:745 JLINK_ReadReg(R3)  returns 0x00000000 (0000ms, 1301ms total)
TCC10 042:745 JLINK_ReadReg(R4)  returns 0x00000005 (0000ms, 1301ms total)
TCC10 042:745 JLINK_ReadReg(R5)  returns 0x20000230 (0000ms, 1301ms total)
TCC10 042:745 JLINK_ReadReg(R6)  returns 0x000003E8 (0000ms, 1301ms total)
TCC10 042:745 JLINK_ReadReg(R7)  returns 0x58E6AD07 (0000ms, 1301ms total)
TCC10 042:745 JLINK_ReadReg(R8)  returns 0xFFFFFFFF (0000ms, 1301ms total)
TCC10 042:745 JLINK_ReadReg(R9)  returns 0xFFFFFFFF (0000ms, 1301ms total)
TCC10 042:745 JLINK_ReadReg(R10)  returns 0x00006804 (0000ms, 1301ms total)
TCC10 042:745 JLINK_ReadReg(R11)  returns 0x00006804 (0001ms, 1302ms total)
TCC10 042:746 JLINK_ReadReg(R12)  returns 0x00000000 (0000ms, 1302ms total)
TCC10 042:746 JLINK_ReadReg(R13 (SP))  returns 0x200007A8 (0000ms, 1302ms total)
TCC10 042:746 JLINK_ReadReg(R14)  returns 0x000060B5 (0000ms, 1302ms total)
TCC10 042:746 JLINK_ReadReg(R15 (PC))  returns 0x00001AA0 (0000ms, 1302ms total)
TCC10 042:746 JLINK_ReadReg(XPSR)  returns 0x21000000 (0000ms, 1302ms total)
TCC10 042:746 JLINK_ReadReg(MSP)  returns 0x200007A8 (0000ms, 1302ms total)
TCC10 042:746 JLINK_ReadReg(PSP)  returns 0xFFFFFFFC (0000ms, 1302ms total)
TCC10 042:746 JLINK_ReadReg(CFBP)  returns 0x00000000 (0000ms, 1302ms total)
TB9A0 042:746 JLINK_ReadMem (0x200007BC, 0x0004 Bytes, ...) -- CPU_ReadMem(4 bytes @ 0x200007BC) - Data: B5 60 00 00  returns 0x00 (0003ms, 1305ms total)
TB9A0 042:749 JLINK_ReadMem (0x200007AC, 0x0004 Bytes, ...) -- CPU_ReadMem(4 bytes @ 0x200007AC) - Data: 05 00 00 00  returns 0x00 (0003ms, 1308ms total)
TB9A0 042:754 JLINK_ReadMem (0x200007B0, 0x0004 Bytes, ...) -- CPU_ReadMem(4 bytes @ 0x200007B0) - Data: 30 02 00 20  returns 0x00 (0003ms, 1311ms total)
TB9A0 042:757 JLINK_ReadMem (0x200007B4, 0x0004 Bytes, ...) -- CPU_ReadMem(4 bytes @ 0x200007B4) - Data: E8 03 00 00  returns 0x00 (0003ms, 1314ms total)
TB9A0 042:760 JLINK_ReadMem (0x200007B8, 0x0004 Bytes, ...) -- CPU_ReadMem(4 bytes @ 0x200007B8) - Data: 07 AD E6 58  returns 0x00 (0003ms, 1317ms total)
TB9A0 042:763 JLINK_ReadMem (0x00000000, 0x0002 Bytes, ...) -- CPU_ReadMem(64 bytes @ 0x00000000) -- Updating DA cache (64 bytes @ 0x00000000) -- Read from DA cache (2 bytes @ 0x00000000) - Data: E0 07  returns 0x00 (0003ms, 1320ms total)
TB9A0 042:766 JLINK_ReadMem (0x00000000, 0x0004 Bytes, ...) -- Read from DA cache (4 bytes @ 0x00000000) - Data: E0 07 00 20  returns 0x00 (0000ms, 1320ms total)
TB9A0 042:766 JLINK_ReadMem (0x200007DC, 0x0001 Bytes, ...) -- CPU_ReadMem(1 bytes @ 0x200007DC) - Data: 3F  returns 0x00 (0004ms, 1324ms total)
TB9A0 042:770 JLINK_ReadMem (0x200007CC, 0x0005 Bytes, ...) -- CPU_ReadMem(5 bytes @ 0x200007CC) - Data: EE DE B8 5F F3  returns 0x00 (0002ms, 1326ms total)
TB9A0 042:772 JLINK_ReadMem (0x200007C4, 0x0005 Bytes, ...) -- CPU_ReadMem(5 bytes @ 0x200007C4) - Data: 53 01 00 00 E0  returns 0x00 (0004ms, 1330ms total)
TB9A0 042:776 JLINK_ReadMem (0x50000200, 0x0024 Bytes, ...) -- CPU_ReadMem(36 bytes @ 0x50000200) - Data: 05 00 00 00 05 00 00 00 01 10 01 00 11 00 00 00 ...  returns 0x00 (0002ms, 1332ms total)
TB9A0 042:778 JLINK_ReadMem (0x50000224, 0x0004 Bytes, ...) -- CPU_ReadMem(4 bytes @ 0x50000224) - Data: 00 00 00 00  returns 0x00 (0003ms, 1335ms total)
TB9A0 042:786 JLINK_ReadMem (0x00001A9E, 0x0002 Bytes, ...) -- CPU_ReadMem(64 bytes @ 0x00001A80) -- Updating DA cache (64 bytes @ 0x00001A80) -- Read from DA cache (2 bytes @ 0x00001A9E) - Data: F8 B5  returns 0x00 (0003ms, 1338ms total)
TB9A0 042:789 JLINK_ReadMem (0x00001AA0, 0x003C Bytes, ...) -- CPU_ReadMem(64 bytes @ 0x00001AC0) -- Updating DA cache (64 bytes @ 0x00001AC0) -- Read from DA cache (60 bytes @ 0x00001AA0) - Data: 05 46 0E 46 17 46 00 24 06 E0 31 5D 2A 19 90 B2 ...  returns 0x00 (0004ms, 1342ms total)
TCC10 043:284 JLINK_Step() -- Read from DA cache (2 bytes @ 0x00001AA0) -- CPU_ReadMem(4 bytes @ 0xE0001004) -- Simulated  returns 0x00 (0005ms, 1347ms total)
TCC10 043:289 JLINK_ReadReg(R15 (PC))  returns 0x00001AA2 (0000ms, 1347ms total)
TCC10 043:289 JLINK_ReadReg(XPSR)  returns 0x21000000 (0000ms, 1347ms total)
TCC10 043:289 JLINK_ReadReg(R0)  returns 0x00000010 (0000ms, 1347ms total)
TCC10 043:289 JLINK_ReadReg(R1)  returns 0x200007CC (0000ms, 1347ms total)
TCC10 043:289 JLINK_ReadReg(R2)  returns 0x00000005 (0000ms, 1347ms total)
TCC10 043:289 JLINK_ReadReg(R3)  returns 0x00000000 (0000ms, 1347ms total)
TCC10 043:289 JLINK_ReadReg(R4)  returns 0x00000005 (0000ms, 1347ms total)
TCC10 043:289 JLINK_ReadReg(R5)  returns 0x00000010 (0000ms, 1347ms total)
TCC10 043:289 JLINK_ReadReg(R6)  returns 0x000003E8 (0000ms, 1347ms total)
TCC10 043:289 JLINK_ReadReg(R7)  returns 0x58E6AD07 (0000ms, 1347ms total)
TCC10 043:289 JLINK_ReadReg(R8)  returns 0xFFFFFFFF (0000ms, 1347ms total)
TCC10 043:289 JLINK_ReadReg(R9)  returns 0xFFFFFFFF (0000ms, 1347ms total)
TCC10 043:289 JLINK_ReadReg(R10)  returns 0x00006804 (0000ms, 1347ms total)
TCC10 043:289 JLINK_ReadReg(R11)  returns 0x00006804 (0000ms, 1347ms total)
TCC10 043:289 JLINK_ReadReg(R12)  returns 0x00000000 (0000ms, 1347ms total)
TCC10 043:289 JLINK_ReadReg(R13 (SP))  returns 0x200007A8 (0000ms, 1347ms total)
TCC10 043:289 JLINK_ReadReg(R14)  returns 0x000060B5 (0000ms, 1347ms total)
TCC10 043:289 JLINK_ReadReg(R15 (PC))  returns 0x00001AA2 (0000ms, 1347ms total)
TCC10 043:289 JLINK_ReadReg(XPSR)  returns 0x21000000 (0000ms, 1347ms total)
TCC10 043:289 JLINK_ReadReg(MSP)  returns 0x200007A8 (0000ms, 1347ms total)
TCC10 043:289 JLINK_ReadReg(PSP)  returns 0xFFFFFFFC (0000ms, 1347ms total)
TCC10 043:289 JLINK_ReadReg(CFBP)  returns 0x00000000 (0000ms, 1347ms total)
TB9A0 043:289 JLINK_ReadMem (0x200007BC, 0x0004 Bytes, ...) -- CPU_ReadMem(4 bytes @ 0x200007BC) - Data: B5 60 00 00  returns 0x00 (0003ms, 1350ms total)
TB9A0 043:292 JLINK_ReadMem (0x200007AC, 0x0004 Bytes, ...) -- CPU_ReadMem(4 bytes @ 0x200007AC) - Data: 05 00 00 00  returns 0x00 (0003ms, 1353ms total)
TB9A0 043:295 JLINK_ReadMem (0x200007B0, 0x0004 Bytes, ...) -- CPU_ReadMem(4 bytes @ 0x200007B0) - Data: 30 02 00 20  returns 0x00 (0003ms, 1356ms total)
TB9A0 043:298 JLINK_ReadMem (0x200007B4, 0x0004 Bytes, ...) -- CPU_ReadMem(4 bytes @ 0x200007B4) - Data: E8 03 00 00  returns 0x00 (0002ms, 1358ms total)
TB9A0 043:300 JLINK_ReadMem (0x200007B8, 0x0004 Bytes, ...) -- CPU_ReadMem(4 bytes @ 0x200007B8) - Data: 07 AD E6 58  returns 0x00 (0002ms, 1360ms total)
TB9A0 043:302 JLINK_ReadMem (0x00000000, 0x0002 Bytes, ...) -- Read from DA cache (2 bytes @ 0x00000000) - Data: E0 07  returns 0x00 (0000ms, 1360ms total)
TB9A0 043:302 JLINK_ReadMem (0x00000000, 0x0004 Bytes, ...) -- Read from DA cache (4 bytes @ 0x00000000) - Data: E0 07 00 20  returns 0x00 (0000ms, 1360ms total)
TB9A0 043:302 JLINK_ReadMem (0x200007DC, 0x0001 Bytes, ...) -- CPU_ReadMem(1 bytes @ 0x200007DC) - Data: 3F  returns 0x00 (0002ms, 1362ms total)
TB9A0 043:304 JLINK_ReadMem (0x200007CC, 0x0005 Bytes, ...) -- CPU_ReadMem(5 bytes @ 0x200007CC) - Data: EE DE B8 5F F3  returns 0x00 (0004ms, 1366ms total)
TB9A0 043:308 JLINK_ReadMem (0x200007C4, 0x0005 Bytes, ...) -- CPU_ReadMem(5 bytes @ 0x200007C4) - Data: 53 01 00 00 E0  returns 0x00 (0002ms, 1368ms total)
TB9A0 043:311 JLINK_ReadMem (0x50000200, 0x0024 Bytes, ...) -- CPU_ReadMem(36 bytes @ 0x50000200) - Data: 05 00 00 00 05 00 00 00 01 10 01 00 11 00 00 00 ...  returns 0x00 (0002ms, 1370ms total)
TB9A0 043:313 JLINK_ReadMem (0x50000224, 0x0004 Bytes, ...) -- CPU_ReadMem(4 bytes @ 0x50000224) - Data: 00 00 00 00  returns 0x00 (0003ms, 1373ms total)
TCC10 043:789 JLINK_Step() -- Read from DA cache (2 bytes @ 0x00001AA2) -- Simulated  returns 0x00 (0004ms, 1377ms total)
TCC10 043:793 JLINK_ReadReg(R15 (PC))  returns 0x00001AA4 (0000ms, 1377ms total)
TCC10 043:793 JLINK_ReadReg(XPSR)  returns 0x21000000 (0000ms, 1377ms total)
TCC10 043:794 JLINK_ReadReg(R0)  returns 0x00000010 (0000ms, 1378ms total)
TCC10 043:794 JLINK_ReadReg(R1)  returns 0x200007CC (0000ms, 1378ms total)
TCC10 043:794 JLINK_ReadReg(R2)  returns 0x00000005 (0000ms, 1378ms total)
TCC10 043:794 JLINK_ReadReg(R3)  returns 0x00000000 (0000ms, 1378ms total)
TCC10 043:794 JLINK_ReadReg(R4)  returns 0x00000005 (0000ms, 1378ms total)
TCC10 043:794 JLINK_ReadReg(R5)  returns 0x00000010 (0000ms, 1378ms total)
TCC10 043:794 JLINK_ReadReg(R6)  returns 0x200007CC (0000ms, 1378ms total)
TCC10 043:794 JLINK_ReadReg(R7)  returns 0x58E6AD07 (0000ms, 1378ms total)
TCC10 043:794 JLINK_ReadReg(R8)  returns 0xFFFFFFFF (0000ms, 1378ms total)
TCC10 043:794 JLINK_ReadReg(R9)  returns 0xFFFFFFFF (0000ms, 1378ms total)
TCC10 043:794 JLINK_ReadReg(R10)  returns 0x00006804 (0000ms, 1378ms total)
TCC10 043:794 JLINK_ReadReg(R11)  returns 0x00006804 (0000ms, 1378ms total)
TCC10 043:794 JLINK_ReadReg(R12)  returns 0x00000000 (0000ms, 1378ms total)
TCC10 043:794 JLINK_ReadReg(R13 (SP))  returns 0x200007A8 (0000ms, 1378ms total)
TCC10 043:794 JLINK_ReadReg(R14)  returns 0x000060B5 (0000ms, 1378ms total)
TCC10 043:794 JLINK_ReadReg(R15 (PC))  returns 0x00001AA4 (0000ms, 1378ms total)
TCC10 043:794 JLINK_ReadReg(XPSR)  returns 0x21000000 (0000ms, 1378ms total)
TCC10 043:794 JLINK_ReadReg(MSP)  returns 0x200007A8 (0000ms, 1378ms total)
TCC10 043:794 JLINK_ReadReg(PSP)  returns 0xFFFFFFFC (0000ms, 1378ms total)
TCC10 043:794 JLINK_ReadReg(CFBP)  returns 0x00000000 (0000ms, 1378ms total)
TB9A0 043:794 JLINK_ReadMem (0x200007BC, 0x0004 Bytes, ...) -- CPU_ReadMem(4 bytes @ 0x200007BC) - Data: B5 60 00 00  returns 0x00 (0003ms, 1381ms total)
TB9A0 043:797 JLINK_ReadMem (0x200007AC, 0x0004 Bytes, ...) -- CPU_ReadMem(4 bytes @ 0x200007AC) - Data: 05 00 00 00  returns 0x00 (0004ms, 1385ms total)
TB9A0 043:801 JLINK_ReadMem (0x200007B0, 0x0004 Bytes, ...) -- CPU_ReadMem(4 bytes @ 0x200007B0) - Data: 30 02 00 20  returns 0x00 (0002ms, 1387ms total)
TB9A0 043:803 JLINK_ReadMem (0x200007B4, 0x0004 Bytes, ...) -- CPU_ReadMem(4 bytes @ 0x200007B4) - Data: E8 03 00 00  returns 0x00 (0003ms, 1390ms total)
TB9A0 043:806 JLINK_ReadMem (0x200007B8, 0x0004 Bytes, ...) -- CPU_ReadMem(4 bytes @ 0x200007B8) - Data: 07 AD E6 58  returns 0x00 (0003ms, 1393ms total)
TB9A0 043:809 JLINK_ReadMem (0x00000000, 0x0002 Bytes, ...) -- Read from DA cache (2 bytes @ 0x00000000) - Data: E0 07  returns 0x00 (0000ms, 1393ms total)
TB9A0 043:809 JLINK_ReadMem (0x00000000, 0x0004 Bytes, ...) -- Read from DA cache (4 bytes @ 0x00000000) - Data: E0 07 00 20  returns 0x00 (0000ms, 1393ms total)
TB9A0 043:809 JLINK_ReadMem (0x200007DC, 0x0001 Bytes, ...) -- CPU_ReadMem(1 bytes @ 0x200007DC) - Data: 3F  returns 0x00 (0003ms, 1396ms total)
TB9A0 043:812 JLINK_ReadMem (0x200007CC, 0x0005 Bytes, ...) -- CPU_ReadMem(5 bytes @ 0x200007CC) - Data: EE DE B8 5F F3  returns 0x00 (0003ms, 1399ms total)
TB9A0 043:815 JLINK_ReadMem (0x200007C4, 0x0005 Bytes, ...) -- CPU_ReadMem(5 bytes @ 0x200007C4) - Data: 53 01 00 00 E0  returns 0x00 (0003ms, 1402ms total)
TB9A0 043:818 JLINK_ReadMem (0x50000200, 0x0024 Bytes, ...) -- CPU_ReadMem(36 bytes @ 0x50000200) - Data: 05 00 00 00 05 00 00 00 01 10 01 00 11 00 00 00 ...  returns 0x00 (0004ms, 1406ms total)
TB9A0 043:822 JLINK_ReadMem (0x50000224, 0x0004 Bytes, ...) -- CPU_ReadMem(4 bytes @ 0x50000224) - Data: 00 00 00 00  returns 0x00 (0003ms, 1409ms total)
TCC10 044:459 JLINK_Step() -- Read from DA cache (2 bytes @ 0x00001AA4) -- Simulated  returns 0x00 (0002ms, 1411ms total)
TCC10 044:461 JLINK_ReadReg(R15 (PC))  returns 0x00001AA6 (0000ms, 1411ms total)
TCC10 044:461 JLINK_ReadReg(XPSR)  returns 0x21000000 (0000ms, 1411ms total)
TCC10 044:461 JLINK_ReadReg(R0)  returns 0x00000010 (0000ms, 1411ms total)
TCC10 044:461 JLINK_ReadReg(R1)  returns 0x200007CC (0000ms, 1411ms total)
TCC10 044:461 JLINK_ReadReg(R2)  returns 0x00000005 (0000ms, 1411ms total)
TCC10 044:461 JLINK_ReadReg(R3)  returns 0x00000000 (0000ms, 1411ms total)
TCC10 044:461 JLINK_ReadReg(R4)  returns 0x00000005 (0000ms, 1411ms total)
TCC10 044:461 JLINK_ReadReg(R5)  returns 0x00000010 (0000ms, 1411ms total)
TCC10 044:461 JLINK_ReadReg(R6)  returns 0x200007CC (0000ms, 1411ms total)
TCC10 044:461 JLINK_ReadReg(R7)  returns 0x00000005 (0000ms, 1411ms total)
TCC10 044:461 JLINK_ReadReg(R8)  returns 0xFFFFFFFF (0000ms, 1411ms total)
TCC10 044:461 JLINK_ReadReg(R9)  returns 0xFFFFFFFF (0000ms, 1411ms total)
TCC10 044:461 JLINK_ReadReg(R10)  returns 0x00006804 (0000ms, 1411ms total)
TCC10 044:461 JLINK_ReadReg(R11)  returns 0x00006804 (0000ms, 1411ms total)
TCC10 044:462 JLINK_ReadReg(R12)  returns 0x00000000 (0000ms, 1412ms total)
TCC10 044:462 JLINK_ReadReg(R13 (SP))  returns 0x200007A8 (0000ms, 1412ms total)
TCC10 044:462 JLINK_ReadReg(R14)  returns 0x000060B5 (0000ms, 1412ms total)
TCC10 044:462 JLINK_ReadReg(R15 (PC))  returns 0x00001AA6 (0000ms, 1412ms total)
TCC10 044:462 JLINK_ReadReg(XPSR)  returns 0x21000000 (0000ms, 1412ms total)
TCC10 044:462 JLINK_ReadReg(MSP)  returns 0x200007A8 (0000ms, 1412ms total)
TCC10 044:462 JLINK_ReadReg(PSP)  returns 0xFFFFFFFC (0000ms, 1412ms total)
TCC10 044:462 JLINK_ReadReg(CFBP)  returns 0x00000000 (0000ms, 1412ms total)
TB9A0 044:462 JLINK_ReadMem (0x200007BC, 0x0004 Bytes, ...) -- CPU_ReadMem(4 bytes @ 0x200007BC) - Data: B5 60 00 00  returns 0x00 (0003ms, 1415ms total)
TB9A0 044:465 JLINK_ReadMem (0x200007AC, 0x0004 Bytes, ...) -- CPU_ReadMem(4 bytes @ 0x200007AC) - Data: 05 00 00 00  returns 0x00 (0002ms, 1417ms total)
TB9A0 044:467 JLINK_ReadMem (0x200007B0, 0x0004 Bytes, ...) -- CPU_ReadMem(4 bytes @ 0x200007B0) - Data: 30 02 00 20  returns 0x00 (0002ms, 1419ms total)
TB9A0 044:469 JLINK_ReadMem (0x200007B4, 0x0004 Bytes, ...) -- CPU_ReadMem(4 bytes @ 0x200007B4) - Data: E8 03 00 00  returns 0x00 (0004ms, 1423ms total)
TB9A0 044:473 JLINK_ReadMem (0x200007B8, 0x0004 Bytes, ...) -- CPU_ReadMem(4 bytes @ 0x200007B8) - Data: 07 AD E6 58  returns 0x00 (0002ms, 1425ms total)
TB9A0 044:475 JLINK_ReadMem (0x200007CC, 0x0020 Bytes, ...) -- CPU_ReadMem(32 bytes @ 0x200007CC) - Data: EE DE B8 5F F3 00 00 00 75 05 05 14 0F 01 30 31 ...  returns 0x00 (0003ms, 1428ms total)
TB9A0 044:479 JLINK_ReadMem (0x00000000, 0x0004 Bytes, ...) -- Read from DA cache (4 bytes @ 0x00000000) - Data: E0 07 00 20  returns 0x00 (0000ms, 1428ms total)
TB9A0 044:479 JLINK_ReadMem (0x200007C4, 0x0005 Bytes, ...) -- CPU_ReadMem(5 bytes @ 0x200007C4) - Data: 53 01 00 00 E0  returns 0x00 (0002ms, 1430ms total)
TB9A0 044:482 JLINK_ReadMem (0x50000200, 0x0024 Bytes, ...) -- CPU_ReadMem(36 bytes @ 0x50000200) - Data: 05 00 00 00 05 00 00 00 01 10 01 00 11 00 00 00 ...  returns 0x00 (0003ms, 1433ms total)
TB9A0 044:485 JLINK_ReadMem (0x50000224, 0x0004 Bytes, ...) -- CPU_ReadMem(4 bytes @ 0x50000224) - Data: 00 00 00 00  returns 0x00 (0003ms, 1436ms total)
TB9A0 044:493 JLINK_ReadMem (0x00001A9E, 0x0002 Bytes, ...) -- Read from DA cache (2 bytes @ 0x00001A9E) - Data: F8 B5  returns 0x00 (0000ms, 1436ms total)
TB9A0 044:493 JLINK_ReadMem (0x00001AA0, 0x003C Bytes, ...) -- Read from DA cache (60 bytes @ 0x00001AA0) - Data: 05 46 0E 46 17 46 00 24 06 E0 31 5D 2A 19 90 B2 ...  returns 0x00 (0000ms, 1436ms total)
TCC10 048:510 JLINK_Step() -- Read from DA cache (2 bytes @ 0x00001AA6) -- Simulated  returns 0x00 (0006ms, 1442ms total)
TCC10 048:516 JLINK_ReadReg(R15 (PC))  returns 0x00001AA8 (0000ms, 1442ms total)
TCC10 048:516 JLINK_ReadReg(XPSR)  returns 0x61000000 (0000ms, 1442ms total)
TCC10 048:516 JLINK_ReadReg(R0)  returns 0x00000010 (0000ms, 1442ms total)
TCC10 048:516 JLINK_ReadReg(R1)  returns 0x200007CC (0000ms, 1442ms total)
TCC10 048:516 JLINK_ReadReg(R2)  returns 0x00000005 (0000ms, 1442ms total)
TCC10 048:516 JLINK_ReadReg(R3)  returns 0x00000000 (0000ms, 1442ms total)
TCC10 048:516 JLINK_ReadReg(R4)  returns 0x00000000 (0000ms, 1442ms total)
TCC10 048:516 JLINK_ReadReg(R5)  returns 0x00000010 (0000ms, 1442ms total)
TCC10 048:516 JLINK_ReadReg(R6)  returns 0x200007CC (0000ms, 1442ms total)
TCC10 048:516 JLINK_ReadReg(R7)  returns 0x00000005 (0000ms, 1442ms total)
TCC10 048:516 JLINK_ReadReg(R8)  returns 0xFFFFFFFF (0000ms, 1442ms total)
TCC10 048:516 JLINK_ReadReg(R9)  returns 0xFFFFFFFF (0000ms, 1442ms total)
TCC10 048:516 JLINK_ReadReg(R10)  returns 0x00006804 (0000ms, 1442ms total)
